T31F0 000:051.310   SEGGER J-Link V7.90 Log File
T31F0 000:051.407   DLL Compiled: Aug  2 2023 15:18:43
T31F0 000:051.419   Logging started @ 2024-10-24 02:20
T31F0 000:051.430 - 51.437ms
T31F0 000:051.448 JLINK_SetWarnOutHandler(...)
T31F0 000:051.462 - 0.019ms
T31F0 000:051.474 JLINK_OpenEx(...)
T31F0 000:052.340   Firmware: J-Link V9 compiled Dec  8 2023 20:16:22
T31F0 000:052.599   Firmware: J-Link V9 compiled Dec  8 2023 20:16:22
T31F0 000:052.735   Decompressing FW timestamp took 104 us
T31F0 000:058.864   Hardware: V9.70
T31F0 000:058.888   S/N: 602712547
T31F0 000:058.905   OEM: SEGGER
T31F0 000:058.922   Feature(s): GDB, RDI, FlashBP, FlashDL, JFlash
T31F0 000:059.368   Bootloader: (Could not read)
T31F0 000:059.966   TELNET listener socket opened on port 19021
T31F0 000:060.134   WEBSRV WEBSRV_Init(): Starting webserver thread(s)
T31F0 000:060.204   WEBSRV Webserver running on local port 19080
T31F0 000:060.322   Looking for J-Link GUI Server exe at: C:\Keil_v5\ARM\Segger\JLinkGUIServer.exe
T31F0 000:060.444   Looking for J-Link GUI Server exe at: C:\Program Files\SEGGER\JLink\JLinkGUIServer.exe
T31F0 000:060.494   Forking J-Link GUI Server: C:\Program Files\SEGGER\JLink\JLinkGUIServer.exe
T31F0 000:064.131   J-Link GUI Server info: "J-Link GUI server V7.90 "
T31F0 000:064.311 - 12.850ms returns "O.K."
T31F0 000:064.346 JLINK_SetErrorOutHandler(...)
T31F0 000:064.358 - 0.017ms
T31F0 000:064.385 JLINK_ExecCommand("ProjectFile = "D:\wulang\IOTÈí¼þ¿ª·¢\ENG_IOT\mcu\eng_iot\MDK\JLinkSettings.ini"", ...). 
T31F0 000:075.047   Ref file found at: C:\Keil_v5\ARM\Segger\JLinkDevices.ref
T31F0 000:075.161   REF file references invalid XML file: C:\Program Files\SEGGER\JLink\JLinkDevices.xml
T31F0 000:077.227   Device "CORTEX-M0+" selected.
T31F0 000:077.501 - 13.126ms returns 0x00
T31F0 000:079.248 JLINK_ExecCommand("Device = HC32L072PATA", ...). 
T31F0 000:081.031   Device "CORTEX-M0+" selected.
T31F0 000:081.272 - 2.011ms returns 0x00
T31F0 000:081.289 JLINK_ExecCommand("DisableConnectionTimeout", ...). 
T31F0 000:081.303 - 0.007ms returns 0x01
T31F0 000:081.316 JLINK_GetHardwareVersion()
T31F0 000:081.327 - 0.017ms returns 97000
T31F0 000:081.340 JLINK_GetDLLVersion()
T31F0 000:081.354 - 0.019ms returns 79000
T31F0 000:081.366 JLINK_GetOEMString(...)
T31F0 000:081.380 JLINK_GetFirmwareString(...)
T31F0 000:081.391 - 0.017ms
T31F0 000:086.835 JLINK_GetDLLVersion()
T31F0 000:086.862 - 0.033ms returns 79000
T31F0 000:086.875 JLINK_GetCompileDateTime()
T31F0 000:086.886 - 0.016ms
T31F0 000:088.749 JLINK_GetFirmwareString(...)
T31F0 000:088.772 - 0.029ms
T31F0 000:090.440 JLINK_GetHardwareVersion()
T31F0 000:090.462 - 0.028ms returns 97000
T31F0 000:092.092 JLINK_GetSN()
T31F0 000:092.112 - 0.025ms returns 602712547
T31F0 000:093.731 JLINK_GetOEMString(...)
T31F0 000:096.781 JLINK_TIF_Select(JLINKARM_TIF_SWD)
T31F0 000:097.595 - 0.827ms returns 0x00
T31F0 000:097.618 JLINK_HasError()
T31F0 000:097.646 JLINK_SetSpeed(5000)
T31F0 000:097.772 - 0.140ms
T31F0 000:097.795 JLINK_GetId()
T31F0 000:100.393   Found SW-DP with ID 0x0BC11477
T31F0 000:105.484   DPIDR: 0x0BC11477
T31F0 000:106.829   CoreSight SoC-400 or earlier
T31F0 000:108.162   Scanning AP map to find all available APs
T31F0 000:110.146   AP[1]: Stopped AP scan as end of AP map has been reached
T31F0 000:111.489   AP[0]: AHB-AP (IDR: 0x04770031)
T31F0 000:112.832   Iterating through AP map to find AHB-AP to use
T31F0 000:115.019   AP[0]: Core found
T31F0 000:116.498   AP[0]: AHB-AP ROM base: 0xE00FF000
T31F0 000:118.779   CPUID register: 0x410CC601. Implementer code: 0x41 (ARM)
T31F0 000:120.795   Found Cortex-M0 r0p1, Little endian.
T31F0 000:121.132   -- Max. mem block: 0x00010A80
T31F0 000:121.496   CPU_ReadMem(4 bytes @ 0xE000EDF0)
T31F0 000:121.716   CPU_WriteMem(4 bytes @ 0xE000EDF0)
T31F0 000:122.049   CPU_ReadMem(4 bytes @ 0xE0002000)
T31F0 000:123.749   FPUnit: 4 code (BP) slots and 0 literal slots
T31F0 000:123.774   CPU_ReadMem(4 bytes @ 0xE000EDFC)
T31F0 000:124.045   CPU_WriteMem(4 bytes @ 0xE000EDFC)
T31F0 000:124.339   CPU_ReadMem(4 bytes @ 0xE0001000)
T31F0 000:124.592   CPU_WriteMem(4 bytes @ 0xE0001000)
T31F0 000:126.277   CoreSight components:
T31F0 000:127.713   ROMTbl[0] @ E00FF000
T31F0 000:127.738   CPU_ReadMem(64 bytes @ 0xE00FF000)
T31F0 000:128.321   CPU_ReadMem(32 bytes @ 0xE000EFE0)
T31F0 000:130.161   [0][0]: E000E000 CID B105E00D PID 000BB008 SCS
T31F0 000:130.185   CPU_ReadMem(32 bytes @ 0xE0001FE0)
T31F0 000:132.052   [0][1]: E0001000 CID B105E00D PID 000BB00A DWT
T31F0 000:132.081   CPU_ReadMem(32 bytes @ 0xE0002FE0)
T31F0 000:133.921   [0][2]: E0002000 CID B105E00D PID 000BB00B FPB
T31F0 000:134.251 - 36.470ms returns 0x0BC11477
T31F0 000:134.279 JLINK_GetDLLVersion()
T31F0 000:134.290 - 0.017ms returns 79000
T31F0 000:134.304 JLINK_CORE_GetFound()
T31F0 000:134.315 - 0.017ms returns 0x60000FF
T31F0 000:134.329 JLINK_GetDebugInfo(0x100 = JLINKARM_ROM_TABLE_ADDR_INDEX)
T31F0 000:134.342   Value=0xE00FF000
T31F0 000:134.358 - 0.035ms returns 0
T31F0 000:136.252 JLINK_GetDebugInfo(0x100 = JLINKARM_ROM_TABLE_ADDR_INDEX)
T31F0 000:136.273   Value=0xE00FF000
T31F0 000:136.290 - 0.044ms returns 0
T31F0 000:136.303 JLINK_GetDebugInfo(0x101 = JLINKARM_DEBUG_INFO_ETM_ADDR_INDEX)
T31F0 000:136.314   Value=0x00000000
T31F0 000:136.331 - 0.034ms returns 0
T31F0 000:136.351 JLINK_ReadMem(0xE0041FF0, 0x10 Bytes, ...)
T31F0 000:136.385   CPU_ReadMem(16 bytes @ 0xE0041FF0)
T31F0 000:136.716   Data:  00 00 00 00 00 00 00 00 00 00 00 00 00 00 00 00
T31F0 000:136.763 - 0.417ms returns 0
T31F0 000:136.776 JLINK_GetDebugInfo(0x102 = JLINKARM_DEBUG_INFO_MTB_ADDR_INDEX)
T31F0 000:136.788   Value=0x00000000
T31F0 000:136.804 - 0.034ms returns 0
T31F0 000:136.817 JLINK_GetDebugInfo(0x103 = JLINKARM_DEBUG_INFO_TPIU_ADDR_INDEX)
T31F0 000:136.828   Value=0x00000000
T31F0 000:136.845 - 0.034ms returns 0
T31F0 000:136.857 JLINK_ReadMem(0xE0040FF0, 0x10 Bytes, ...)
T31F0 000:136.871   CPU_ReadMem(16 bytes @ 0xE0040FF0)
T31F0 000:137.173   Data:  00 00 00 00 00 00 00 00 00 00 00 00 00 00 00 00
T31F0 000:137.191 - 0.357ms returns 0
T31F0 000:137.221 JLINK_GetDebugInfo(0x104 = JLINKARM_DEBUG_INFO_ITM_ADDR_INDEX)
T31F0 000:137.233   Value=0xE0000000
T31F0 000:137.250 - 0.034ms returns 0
T31F0 000:137.262 JLINK_GetDebugInfo(0x105 = JLINKARM_DEBUG_INFO_DWT_ADDR_INDEX)
T31F0 000:137.273   Value=0xE0001000
T31F0 000:137.290 - 0.034ms returns 0
T31F0 000:137.302 JLINK_GetDebugInfo(0x106 = JLINKARM_DEBUG_INFO_FPB_ADDR_INDEX)
T31F0 000:137.314   Value=0xE0002000
T31F0 000:137.331 - 0.034ms returns 0
T31F0 000:137.343 JLINK_GetDebugInfo(0x107 = JLINKARM_DEBUG_INFO_NVIC_ADDR_INDEX)
T31F0 000:137.355   Value=0xE000E000
T31F0 000:137.371 - 0.034ms returns 0
T31F0 000:137.384 JLINK_GetDebugInfo(0x10C = JLINKARM_DEBUG_INFO_DBG_ADDR_INDEX)
T31F0 000:137.395   Value=0xE000EDF0
T31F0 000:137.412 - 0.034ms returns 0
T31F0 000:137.424 JLINK_ReadMemU32(0xE000ED00, 0x1 Items)
T31F0 000:137.437   CPU_ReadMem(4 bytes @ 0xE000ED00)
T31F0 000:137.693   Data:  01 C6 0C 41
T31F0 000:137.710   Debug reg: CPUID
T31F0 000:137.727 - 0.308ms returns 1 (0x1)
T31F0 000:137.740 JLINK_HasError()
T31F0 000:137.753 JLINK_SetResetType(JLINKARM_CM3_RESET_TYPE_NORMAL)
T31F0 000:137.765 - 0.017ms returns JLINKARM_CM3_RESET_TYPE_NORMAL
T31F0 000:137.777 JLINK_Reset()
T31F0 000:137.800   CPU is running
T31F0 000:137.818   CPU_WriteMem(4 bytes @ 0xE000EDF0)
T31F0 000:138.112   CPU is running
T31F0 000:138.129   CPU_WriteMem(4 bytes @ 0xE000EDFC)
T31F0 000:140.143   Reset: Halt core after reset via DEMCR.VC_CORERESET.
T31F0 000:142.154   Reset: Reset device via AIRCR.SYSRESETREQ.
T31F0 000:142.178   CPU is running
T31F0 000:142.196   CPU_WriteMem(4 bytes @ 0xE000ED0C)
T31F0 000:194.907   CPU_ReadMem(4 bytes @ 0xE000EDF0)
T31F0 000:195.389   CPU_ReadMem(4 bytes @ 0xE000EDF0)
T31F0 000:197.751   CPU_WriteMem(4 bytes @ 0xE000EDFC)
T31F0 000:203.927   CPU_ReadMem(4 bytes @ 0xE000EDF0)
T31F0 000:206.221   CPU_WriteMem(4 bytes @ 0xE0002000)
T31F0 000:206.566   CPU_ReadMem(4 bytes @ 0xE000EDFC)
T31F0 000:206.880   CPU_ReadMem(4 bytes @ 0xE0001000)
T31F0 000:207.190   CPU_WriteMem(4 bytes @ 0xE0001000)
T31F0 000:207.529 - 69.770ms
T31F0 000:207.623 JLINK_Halt()
T31F0 000:207.654 - 0.045ms returns 0x00
T31F0 000:207.686 JLINK_IsHalted()
T31F0 000:207.716 - 0.045ms returns TRUE
T31F0 000:207.748 JLINK_ReadMemU32(0xE000EDF0, 0x1 Items)
T31F0 000:207.786   CPU_ReadMem(4 bytes @ 0xE000EDF0)
T31F0 000:208.090   Data:  03 00 03 00
T31F0 000:208.136   Debug reg: DHCSR
T31F0 000:208.180 - 0.446ms returns 1 (0x1)
T31F0 000:208.227 JLINK_WriteU32_64(0xE000EDF0, 0xA05F0003)
T31F0 000:208.260   Debug reg: DHCSR
T31F0 000:208.649   CPU_WriteMem(4 bytes @ 0xE000EDF0)
T31F0 000:209.098 - 0.905ms returns 0 (0x00000000)
T31F0 000:209.154 JLINK_WriteU32_64(0xE000EDFC, 0x01000000)
T31F0 000:209.182   Debug reg: DEMCR
T31F0 000:209.233   CPU_WriteMem(4 bytes @ 0xE000EDFC)
T31F0 000:209.691 - 0.564ms returns 0 (0x00000000)
T31F0 000:217.777 JLINK_GetHWStatus(...)
T31F0 000:217.964 - 0.200ms returns 0
T31F0 000:221.655 JLINK_GetNumBPUnits(Type = 0xFFFFFF00)
T31F0 000:221.674 - 0.025ms returns 0x04
T31F0 000:221.687 JLINK_GetNumBPUnits(Type = 0xF0)
T31F0 000:221.697 - 0.015ms returns 0x2000
T31F0 000:221.708 JLINK_GetNumWPUnits()
T31F0 000:221.718 - 0.015ms returns 2
T31F0 000:225.409 JLINK_GetSpeed()
T31F0 000:225.427 - 0.023ms returns 4000
T31F0 000:227.725 JLINK_ReadMemU32(0xE000E004, 0x1 Items)
T31F0 000:227.750   CPU_ReadMem(4 bytes @ 0xE000E004)
T31F0 000:228.026   Data:  00 00 00 00
T31F0 000:228.043 - 0.322ms returns 1 (0x1)
T31F0 000:228.058 JLINK_Halt()
T31F0 000:228.069 - 0.015ms returns 0x00
T31F0 000:228.080 JLINK_IsHalted()
T31F0 000:228.091 - 0.016ms returns TRUE
T31F0 000:229.929 JLINK_WriteMem(0x20000000, 0x250 Bytes, ...)
T31F0 000:229.944   Data:  00 BE 0A E0 0D 78 2D 06 68 40 08 24 40 00 00 D3 ...
T31F0 000:230.154   CPU_WriteMem(592 bytes @ 0x20000000)
T31F0 000:233.163 - 3.253ms returns 0x250
T31F0 000:233.249 JLINK_HasError()
T31F0 000:233.269 JLINK_WriteReg(R0, 0x00000000)
T31F0 000:233.285 - 0.021ms returns 0
T31F0 000:233.296 JLINK_WriteReg(R1, 0x00B71B00)
T31F0 000:233.307 - 0.016ms returns 0
T31F0 000:233.318 JLINK_WriteReg(R2, 0x00000001)
T31F0 000:233.329 - 0.016ms returns 0
T31F0 000:233.340 JLINK_WriteReg(R3, 0x00000000)
T31F0 000:233.350 - 0.015ms returns 0
T31F0 000:233.361 JLINK_WriteReg(R4, 0x00000000)
T31F0 000:233.372 - 0.015ms returns 0
T31F0 000:233.383 JLINK_WriteReg(R5, 0x00000000)
T31F0 000:233.393 - 0.015ms returns 0
T31F0 000:233.404 JLINK_WriteReg(R6, 0x00000000)
T31F0 000:233.415 - 0.015ms returns 0
T31F0 000:233.426 JLINK_WriteReg(R7, 0x00000000)
T31F0 000:233.436 - 0.015ms returns 0
T31F0 000:233.447 JLINK_WriteReg(R8, 0x00000000)
T31F0 000:233.465 - 0.023ms returns 0
T31F0 000:233.476 JLINK_WriteReg(R9, 0x2000024C)
T31F0 000:233.487 - 0.015ms returns 0
T31F0 000:233.498 JLINK_WriteReg(R10, 0x00000000)
T31F0 000:233.508 - 0.015ms returns 0
T31F0 000:233.519 JLINK_WriteReg(R11, 0x00000000)
T31F0 000:233.530 - 0.015ms returns 0
T31F0 000:233.541 JLINK_WriteReg(R12, 0x00000000)
T31F0 000:233.551 - 0.015ms returns 0
T31F0 000:233.562 JLINK_WriteReg(R13 (SP), 0x20001000)
T31F0 000:233.574 - 0.019ms returns 0
T31F0 000:233.587 JLINK_WriteReg(R14, 0x20000001)
T31F0 000:233.598 - 0.016ms returns 0
T31F0 000:233.609 JLINK_WriteReg(R15 (PC), 0x200000A8)
T31F0 000:233.623 - 0.019ms returns 0
T31F0 000:233.634 JLINK_WriteReg(XPSR, 0x01000000)
T31F0 000:233.645 - 0.016ms returns 0
T31F0 000:233.656 JLINK_WriteReg(MSP, 0x20001000)
T31F0 000:233.666 - 0.015ms returns 0
T31F0 000:233.677 JLINK_WriteReg(PSP, 0x20001000)
T31F0 000:233.688 - 0.015ms returns 0
T31F0 000:233.699 JLINK_WriteReg(CFBP, 0x00000000)
T31F0 000:233.709 - 0.015ms returns 0
T31F0 000:233.721 JLINK_SetBPEx(Addr = 0x20000000, Type = 0xFFFFFFF2)
T31F0 000:233.739   CPU_ReadMem(4 bytes @ 0x20000000)
T31F0 000:234.013   CPU_WriteMem(4 bytes @ 0x20000000)
T31F0 000:234.256   CPU_ReadMem(4 bytes @ 0x20000000)
T31F0 000:234.523   CPU_WriteMem(4 bytes @ 0x20000000)
T31F0 000:234.859   CPU_ReadMem(2 bytes @ 0x20000000)
T31F0 000:235.110 - 1.394ms returns 0x00000001
T31F0 000:235.122 JLINK_Go()
T31F0 000:235.135   CPU_WriteMem(2 bytes @ 0x20000000)
T31F0 000:235.375   CPU_ReadMem(4 bytes @ 0xE0001000)
T31F0 000:235.619   CPU_WriteMem(4 bytes @ 0xE0001000)
T31F0 000:235.880   CPU_WriteMem(4 bytes @ 0xE0002008)
T31F0 000:236.027   CPU_WriteMem(4 bytes @ 0xE000200C)
T31F0 000:236.042   CPU_WriteMem(4 bytes @ 0xE0002010)
T31F0 000:236.058   CPU_WriteMem(4 bytes @ 0xE0002014)
T31F0 000:236.719   CPU_WriteMem(4 bytes @ 0xE0001004)
T31F0 000:239.087 - 3.971ms
T31F0 000:239.101 JLINK_IsHalted()
T31F0 000:241.090   CPU_ReadMem(2 bytes @ 0x20000000)
T31F0 000:241.370 - 2.274ms returns TRUE
T31F0 000:241.383 JLINK_ReadReg(R15 (PC))
T31F0 000:241.396 - 0.017ms returns 0x20000000
T31F0 000:241.407 JLINK_ClrBPEx(BPHandle = 0x00000001)
T31F0 000:241.418 - 0.016ms returns 0x00
T31F0 000:241.430 JLINK_ReadReg(R0)
T31F0 000:241.441 - 0.016ms returns 0x00000000
T31F0 000:241.656 JLINK_HasError()
T31F0 000:241.670 JLINK_WriteReg(R0, 0x00000000)
T31F0 000:241.682 - 0.017ms returns 0
T31F0 000:241.694 JLINK_WriteReg(R1, 0x00000200)
T31F0 000:241.705 - 0.021ms returns 0
T31F0 000:241.735 JLINK_WriteReg(R2, 0x000000FF)
T31F0 000:241.772 - 0.054ms returns 0
T31F0 000:241.810 JLINK_WriteReg(R3, 0x00000000)
T31F0 000:241.846 - 0.054ms returns 0
T31F0 000:241.884 JLINK_WriteReg(R4, 0x00000000)
T31F0 000:241.921 - 0.055ms returns 0
T31F0 000:241.959 JLINK_WriteReg(R5, 0x00000000)
T31F0 000:241.995 - 0.054ms returns 0
T31F0 000:242.033 JLINK_WriteReg(R6, 0x00000000)
T31F0 000:242.070 - 0.054ms returns 0
T31F0 000:242.108 JLINK_WriteReg(R7, 0x00000000)
T31F0 000:242.145 - 0.054ms returns 0
T31F0 000:242.182 JLINK_WriteReg(R8, 0x00000000)
T31F0 000:242.219 - 0.054ms returns 0
T31F0 000:242.257 JLINK_WriteReg(R9, 0x2000024C)
T31F0 000:242.294 - 0.055ms returns 0
T31F0 000:242.333 JLINK_WriteReg(R10, 0x00000000)
T31F0 000:242.370 - 0.054ms returns 0
T31F0 000:242.407 JLINK_WriteReg(R11, 0x00000000)
T31F0 000:242.444 - 0.054ms returns 0
T31F0 000:242.481 JLINK_WriteReg(R12, 0x00000000)
T31F0 000:242.518 - 0.055ms returns 0
T31F0 000:242.556 JLINK_WriteReg(R13 (SP), 0x20001000)
T31F0 000:242.593 - 0.053ms returns 0
T31F0 000:242.628 JLINK_WriteReg(R14, 0x20000001)
T31F0 000:242.662 - 0.051ms returns 0
T31F0 000:242.698 JLINK_WriteReg(R15 (PC), 0x20000020)
T31F0 000:242.732 - 0.050ms returns 0
T31F0 000:242.767 JLINK_WriteReg(XPSR, 0x01000000)
T31F0 000:242.801 - 0.051ms returns 0
T31F0 000:242.836 JLINK_WriteReg(MSP, 0x20001000)
T31F0 000:242.870 - 0.050ms returns 0
T31F0 000:242.906 JLINK_WriteReg(PSP, 0x20001000)
T31F0 000:242.938 - 0.046ms returns 0
T31F0 000:242.970 JLINK_WriteReg(CFBP, 0x00000000)
T31F0 000:243.002 - 0.046ms returns 0
T31F0 000:243.034 JLINK_SetBPEx(Addr = 0x20000000, Type = 0xFFFFFFF2)
T31F0 000:243.068 - 0.049ms returns 0x00000002
T31F0 000:243.101 JLINK_Go()
T31F0 000:243.144   CPU_ReadMem(4 bytes @ 0xE0001000)
T31F0 000:245.454 - 2.371ms
T31F0 000:245.494 JLINK_IsHalted()
T31F0 000:247.464   CPU_ReadMem(2 bytes @ 0x20000000)
T31F0 000:247.753 - 2.264ms returns TRUE
T31F0 000:247.766 JLINK_ReadReg(R15 (PC))
T31F0 000:247.778 - 0.017ms returns 0x20000000
T31F0 000:247.789 JLINK_ClrBPEx(BPHandle = 0x00000002)
T31F0 000:247.800 - 0.016ms returns 0x00
T31F0 000:247.811 JLINK_ReadReg(R0)
T31F0 000:247.822 - 0.015ms returns 0x00000001
T31F0 000:247.833 JLINK_HasError()
T31F0 000:247.844 JLINK_WriteReg(R0, 0x00000000)
T31F0 000:247.855 - 0.016ms returns 0
T31F0 000:247.887 JLINK_WriteReg(R1, 0x00000200)
T31F0 000:247.920 - 0.050ms returns 0
T31F0 000:247.948 JLINK_WriteReg(R2, 0x000000FF)
T31F0 000:247.963 - 0.020ms returns 0
T31F0 000:247.976 JLINK_WriteReg(R3, 0x00000000)
T31F0 000:247.988 - 0.018ms returns 0
T31F0 000:248.000 JLINK_WriteReg(R4, 0x00000000)
T31F0 000:248.012 - 0.017ms returns 0
T31F0 000:248.024 JLINK_WriteReg(R5, 0x00000000)
T31F0 000:248.036 - 0.017ms returns 0
T31F0 000:248.048 JLINK_WriteReg(R6, 0x00000000)
T31F0 000:248.103 - 0.061ms returns 0
T31F0 000:248.116 JLINK_WriteReg(R7, 0x00000000)
T31F0 000:248.127 - 0.016ms returns 0
T31F0 000:248.138 JLINK_WriteReg(R8, 0x00000000)
T31F0 000:248.148 - 0.015ms returns 0
T31F0 000:248.159 JLINK_WriteReg(R9, 0x2000024C)
T31F0 000:248.170 - 0.016ms returns 0
T31F0 000:248.181 JLINK_WriteReg(R10, 0x00000000)
T31F0 000:248.192 - 0.016ms returns 0
T31F0 000:248.204 JLINK_WriteReg(R11, 0x00000000)
T31F0 000:248.214 - 0.016ms returns 0
T31F0 000:248.226 JLINK_WriteReg(R12, 0x00000000)
T31F0 000:248.237 - 0.016ms returns 0
T31F0 000:248.248 JLINK_WriteReg(R13 (SP), 0x20001000)
T31F0 000:248.259 - 0.017ms returns 0
T31F0 000:248.271 JLINK_WriteReg(R14, 0x20000001)
T31F0 000:248.283 - 0.017ms returns 0
T31F0 000:248.295 JLINK_WriteReg(R15 (PC), 0x20000074)
T31F0 000:248.307 - 0.017ms returns 0
T31F0 000:248.319 JLINK_WriteReg(XPSR, 0x01000000)
T31F0 000:248.331 - 0.017ms returns 0
T31F0 000:248.343 JLINK_WriteReg(MSP, 0x20001000)
T31F0 000:248.355 - 0.017ms returns 0
T31F0 000:248.367 JLINK_WriteReg(PSP, 0x20001000)
T31F0 000:248.379 - 0.017ms returns 0
T31F0 000:248.392 JLINK_WriteReg(CFBP, 0x00000000)
T31F0 000:248.403 - 0.015ms returns 0
T31F0 000:248.414 JLINK_SetBPEx(Addr = 0x20000000, Type = 0xFFFFFFF2)
T31F0 000:248.426 - 0.017ms returns 0x00000003
T31F0 000:248.437 JLINK_Go()
T31F0 000:248.452   CPU_ReadMem(4 bytes @ 0xE0001000)
T31F0 000:250.736 - 2.314ms
T31F0 000:250.760 JLINK_IsHalted()
T31F0 000:250.992 - 0.237ms returns FALSE
T31F0 000:251.004 JLINK_HasError()
T31F0 000:260.584 JLINK_IsHalted()
T31F0 000:262.595   CPU_ReadMem(2 bytes @ 0x20000000)
T31F0 000:262.866 - 2.288ms returns TRUE
T31F0 000:262.880 JLINK_ReadReg(R15 (PC))
T31F0 000:262.892 - 0.018ms returns 0x20000000
T31F0 000:262.904 JLINK_ClrBPEx(BPHandle = 0x00000003)
T31F0 000:262.916 - 0.017ms returns 0x00
T31F0 000:262.928 JLINK_ReadReg(R0)
T31F0 000:262.940 - 0.017ms returns 0x00000000
T31F0 000:263.238 JLINK_HasError()
T31F0 000:263.253 JLINK_WriteReg(R0, 0x00000200)
T31F0 000:263.267 - 0.019ms returns 0
T31F0 000:263.279 JLINK_WriteReg(R1, 0x00000200)
T31F0 000:263.291 - 0.017ms returns 0
T31F0 000:263.304 JLINK_WriteReg(R2, 0x000000FF)
T31F0 000:263.315 - 0.017ms returns 0
T31F0 000:263.328 JLINK_WriteReg(R3, 0x00000000)
T31F0 000:263.339 - 0.017ms returns 0
T31F0 000:263.351 JLINK_WriteReg(R4, 0x00000000)
T31F0 000:263.363 - 0.017ms returns 0
T31F0 000:263.375 JLINK_WriteReg(R5, 0x00000000)
T31F0 000:263.387 - 0.017ms returns 0
T31F0 000:263.399 JLINK_WriteReg(R6, 0x00000000)
T31F0 000:263.411 - 0.017ms returns 0
T31F0 000:263.423 JLINK_WriteReg(R7, 0x00000000)
T31F0 000:263.434 - 0.017ms returns 0
T31F0 000:263.446 JLINK_WriteReg(R8, 0x00000000)
T31F0 000:263.458 - 0.017ms returns 0
T31F0 000:263.470 JLINK_WriteReg(R9, 0x2000024C)
T31F0 000:263.482 - 0.017ms returns 0
T31F0 000:263.494 JLINK_WriteReg(R10, 0x00000000)
T31F0 000:263.505 - 0.017ms returns 0
T31F0 000:263.517 JLINK_WriteReg(R11, 0x00000000)
T31F0 000:263.529 - 0.017ms returns 0
T31F0 000:263.541 JLINK_WriteReg(R12, 0x00000000)
T31F0 000:263.553 - 0.017ms returns 0
T31F0 000:263.565 JLINK_WriteReg(R13 (SP), 0x20001000)
T31F0 000:263.577 - 0.016ms returns 0
T31F0 000:263.587 JLINK_WriteReg(R14, 0x20000001)
T31F0 000:263.598 - 0.015ms returns 0
T31F0 000:263.609 JLINK_WriteReg(R15 (PC), 0x20000020)
T31F0 000:263.620 - 0.015ms returns 0
T31F0 000:263.631 JLINK_WriteReg(XPSR, 0x01000000)
T31F0 000:263.641 - 0.015ms returns 0
T31F0 000:263.652 JLINK_WriteReg(MSP, 0x20001000)
T31F0 000:263.663 - 0.015ms returns 0
T31F0 000:263.674 JLINK_WriteReg(PSP, 0x20001000)
T31F0 000:263.685 - 0.016ms returns 0
T31F0 000:263.696 JLINK_WriteReg(CFBP, 0x00000000)
T31F0 000:263.706 - 0.015ms returns 0
T31F0 000:263.717 JLINK_SetBPEx(Addr = 0x20000000, Type = 0xFFFFFFF2)
T31F0 000:263.729 - 0.016ms returns 0x00000004
T31F0 000:263.740 JLINK_Go()
T31F0 000:263.754   CPU_ReadMem(4 bytes @ 0xE0001000)
T31F0 000:265.958 - 2.230ms
T31F0 000:265.979 JLINK_IsHalted()
T31F0 000:267.985   CPU_ReadMem(2 bytes @ 0x20000000)
T31F0 000:268.232 - 2.258ms returns TRUE
T31F0 000:268.245 JLINK_ReadReg(R15 (PC))
T31F0 000:268.256 - 0.017ms returns 0x20000000
T31F0 000:268.268 JLINK_ClrBPEx(BPHandle = 0x00000004)
T31F0 000:268.278 - 0.016ms returns 0x00
T31F0 000:268.290 JLINK_ReadReg(R0)
T31F0 000:268.300 - 0.015ms returns 0x00000001
T31F0 000:268.312 JLINK_HasError()
T31F0 000:268.323 JLINK_WriteReg(R0, 0x00000200)
T31F0 000:268.334 - 0.016ms returns 0
T31F0 000:268.345 JLINK_WriteReg(R1, 0x00000200)
T31F0 000:268.356 - 0.015ms returns 0
T31F0 000:268.367 JLINK_WriteReg(R2, 0x000000FF)
T31F0 000:268.377 - 0.015ms returns 0
T31F0 000:268.388 JLINK_WriteReg(R3, 0x00000000)
T31F0 000:268.399 - 0.015ms returns 0
T31F0 000:268.409 JLINK_WriteReg(R4, 0x00000000)
T31F0 000:268.420 - 0.015ms returns 0
T31F0 000:268.431 JLINK_WriteReg(R5, 0x00000000)
T31F0 000:268.442 - 0.015ms returns 0
T31F0 000:268.453 JLINK_WriteReg(R6, 0x00000000)
T31F0 000:268.463 - 0.015ms returns 0
T31F0 000:268.474 JLINK_WriteReg(R7, 0x00000000)
T31F0 000:268.485 - 0.015ms returns 0
T31F0 000:268.496 JLINK_WriteReg(R8, 0x00000000)
T31F0 000:268.506 - 0.015ms returns 0
T31F0 000:268.517 JLINK_WriteReg(R9, 0x2000024C)
T31F0 000:268.528 - 0.015ms returns 0
T31F0 000:268.539 JLINK_WriteReg(R10, 0x00000000)
T31F0 000:268.550 - 0.015ms returns 0
T31F0 000:268.561 JLINK_WriteReg(R11, 0x00000000)
T31F0 000:268.573 - 0.017ms returns 0
T31F0 000:268.584 JLINK_WriteReg(R12, 0x00000000)
T31F0 000:268.599 - 0.020ms returns 0
T31F0 000:268.610 JLINK_WriteReg(R13 (SP), 0x20001000)
T31F0 000:268.621 - 0.016ms returns 0
T31F0 000:268.632 JLINK_WriteReg(R14, 0x20000001)
T31F0 000:268.643 - 0.015ms returns 0
T31F0 000:268.654 JLINK_WriteReg(R15 (PC), 0x20000074)
T31F0 000:268.665 - 0.015ms returns 0
T31F0 000:268.676 JLINK_WriteReg(XPSR, 0x01000000)
T31F0 000:268.686 - 0.015ms returns 0
T31F0 000:268.697 JLINK_WriteReg(MSP, 0x20001000)
T31F0 000:268.708 - 0.015ms returns 0
T31F0 000:268.719 JLINK_WriteReg(PSP, 0x20001000)
T31F0 000:268.729 - 0.015ms returns 0
T31F0 000:268.740 JLINK_WriteReg(CFBP, 0x00000000)
T31F0 000:268.751 - 0.015ms returns 0
T31F0 000:268.762 JLINK_SetBPEx(Addr = 0x20000000, Type = 0xFFFFFFF2)
T31F0 000:268.773 - 0.016ms returns 0x00000005
T31F0 000:268.784 JLINK_Go()
T31F0 000:268.797   CPU_ReadMem(4 bytes @ 0xE0001000)
T31F0 000:270.996 - 2.220ms
T31F0 000:271.032 JLINK_IsHalted()
T31F0 000:271.366 - 0.364ms returns FALSE
T31F0 000:271.404 JLINK_HasError()
T31F0 000:273.594 JLINK_IsHalted()
T31F0 000:273.899 - 0.311ms returns FALSE
T31F0 000:273.912 JLINK_HasError()
T31F0 000:275.611 JLINK_IsHalted()
T31F0 000:277.573   CPU_ReadMem(2 bytes @ 0x20000000)
T31F0 000:277.868 - 2.271ms returns TRUE
T31F0 000:277.899 JLINK_ReadReg(R15 (PC))
T31F0 000:277.952 - 0.059ms returns 0x20000000
T31F0 000:277.965 JLINK_ClrBPEx(BPHandle = 0x00000005)
T31F0 000:277.977 - 0.018ms returns 0x00
T31F0 000:277.990 JLINK_ReadReg(R0)
T31F0 000:278.002 - 0.017ms returns 0x00000000
T31F0 000:278.637 JLINK_HasError()
T31F0 000:278.655 JLINK_WriteReg(R0, 0x00000400)
T31F0 000:278.667 - 0.018ms returns 0
T31F0 000:278.679 JLINK_WriteReg(R1, 0x00000200)
T31F0 000:278.690 - 0.016ms returns 0
T31F0 000:278.702 JLINK_WriteReg(R2, 0x000000FF)
T31F0 000:278.713 - 0.016ms returns 0
T31F0 000:278.724 JLINK_WriteReg(R3, 0x00000000)
T31F0 000:278.735 - 0.016ms returns 0
T31F0 000:278.746 JLINK_WriteReg(R4, 0x00000000)
T31F0 000:278.757 - 0.016ms returns 0
T31F0 000:278.768 JLINK_WriteReg(R5, 0x00000000)
T31F0 000:278.779 - 0.016ms returns 0
T31F0 000:278.790 JLINK_WriteReg(R6, 0x00000000)
T31F0 000:278.801 - 0.016ms returns 0
T31F0 000:278.812 JLINK_WriteReg(R7, 0x00000000)
T31F0 000:278.823 - 0.016ms returns 0
T31F0 000:278.834 JLINK_WriteReg(R8, 0x00000000)
T31F0 000:278.845 - 0.016ms returns 0
T31F0 000:278.856 JLINK_WriteReg(R9, 0x2000024C)
T31F0 000:278.867 - 0.016ms returns 0
T31F0 000:278.879 JLINK_WriteReg(R10, 0x00000000)
T31F0 000:278.890 - 0.016ms returns 0
T31F0 000:278.903 JLINK_WriteReg(R11, 0x00000000)
T31F0 000:278.915 - 0.017ms returns 0
T31F0 000:278.926 JLINK_WriteReg(R12, 0x00000000)
T31F0 000:278.937 - 0.016ms returns 0
T31F0 000:278.948 JLINK_WriteReg(R13 (SP), 0x20001000)
T31F0 000:278.959 - 0.016ms returns 0
T31F0 000:278.971 JLINK_WriteReg(R14, 0x20000001)
T31F0 000:278.982 - 0.016ms returns 0
T31F0 000:278.993 JLINK_WriteReg(R15 (PC), 0x20000020)
T31F0 000:279.004 - 0.016ms returns 0
T31F0 000:279.016 JLINK_WriteReg(XPSR, 0x01000000)
T31F0 000:279.027 - 0.016ms returns 0
T31F0 000:279.038 JLINK_WriteReg(MSP, 0x20001000)
T31F0 000:279.049 - 0.016ms returns 0
T31F0 000:279.061 JLINK_WriteReg(PSP, 0x20001000)
T31F0 000:279.071 - 0.015ms returns 0
T31F0 000:279.082 JLINK_WriteReg(CFBP, 0x00000000)
T31F0 000:279.093 - 0.015ms returns 0
T31F0 000:279.104 JLINK_SetBPEx(Addr = 0x20000000, Type = 0xFFFFFFF2)
T31F0 000:279.115 - 0.016ms returns 0x00000006
T31F0 000:279.127 JLINK_Go()
T31F0 000:279.141   CPU_ReadMem(4 bytes @ 0xE0001000)
T31F0 000:281.656 - 2.560ms
T31F0 000:281.694 JLINK_IsHalted()
T31F0 000:283.654   CPU_ReadMem(2 bytes @ 0x20000000)
T31F0 000:284.062 - 2.391ms returns TRUE
T31F0 000:284.096 JLINK_ReadReg(R15 (PC))
T31F0 000:284.111 - 0.020ms returns 0x20000000
T31F0 000:284.123 JLINK_ClrBPEx(BPHandle = 0x00000006)
T31F0 000:284.134 - 0.017ms returns 0x00
T31F0 000:284.173 JLINK_ReadReg(R0)
T31F0 000:284.188 - 0.019ms returns 0x00000001
T31F0 000:284.200 JLINK_HasError()
T31F0 000:284.212 JLINK_WriteReg(R0, 0x00000400)
T31F0 000:284.224 - 0.017ms returns 0
T31F0 000:284.235 JLINK_WriteReg(R1, 0x00000200)
T31F0 000:284.247 - 0.016ms returns 0
T31F0 000:284.258 JLINK_WriteReg(R2, 0x000000FF)
T31F0 000:284.270 - 0.016ms returns 0
T31F0 000:284.281 JLINK_WriteReg(R3, 0x00000000)
T31F0 000:284.292 - 0.016ms returns 0
T31F0 000:284.304 JLINK_WriteReg(R4, 0x00000000)
T31F0 000:284.315 - 0.016ms returns 0
T31F0 000:284.326 JLINK_WriteReg(R5, 0x00000000)
T31F0 000:284.337 - 0.016ms returns 0
T31F0 000:284.349 JLINK_WriteReg(R6, 0x00000000)
T31F0 000:284.360 - 0.016ms returns 0
T31F0 000:284.371 JLINK_WriteReg(R7, 0x00000000)
T31F0 000:284.382 - 0.016ms returns 0
T31F0 000:284.394 JLINK_WriteReg(R8, 0x00000000)
T31F0 000:284.405 - 0.016ms returns 0
T31F0 000:284.416 JLINK_WriteReg(R9, 0x2000024C)
T31F0 000:284.427 - 0.016ms returns 0
T31F0 000:284.439 JLINK_WriteReg(R10, 0x00000000)
T31F0 000:284.450 - 0.016ms returns 0
T31F0 000:284.462 JLINK_WriteReg(R11, 0x00000000)
T31F0 000:284.473 - 0.016ms returns 0
T31F0 000:284.484 JLINK_WriteReg(R12, 0x00000000)
T31F0 000:284.495 - 0.016ms returns 0
T31F0 000:284.507 JLINK_WriteReg(R13 (SP), 0x20001000)
T31F0 000:284.518 - 0.016ms returns 0
T31F0 000:284.530 JLINK_WriteReg(R14, 0x20000001)
T31F0 000:284.541 - 0.016ms returns 0
T31F0 000:284.552 JLINK_WriteReg(R15 (PC), 0x20000074)
T31F0 000:284.564 - 0.016ms returns 0
T31F0 000:284.575 JLINK_WriteReg(XPSR, 0x01000000)
T31F0 000:284.586 - 0.016ms returns 0
T31F0 000:284.597 JLINK_WriteReg(MSP, 0x20001000)
T31F0 000:284.609 - 0.016ms returns 0
T31F0 000:284.620 JLINK_WriteReg(PSP, 0x20001000)
T31F0 000:284.631 - 0.016ms returns 0
T31F0 000:284.643 JLINK_WriteReg(CFBP, 0x00000000)
T31F0 000:284.654 - 0.016ms returns 0
T31F0 000:284.665 JLINK_SetBPEx(Addr = 0x20000000, Type = 0xFFFFFFF2)
T31F0 000:284.680 - 0.019ms returns 0x00000007
T31F0 000:284.691 JLINK_Go()
T31F0 000:284.704   CPU_ReadMem(4 bytes @ 0xE0001000)
T31F0 000:286.986 - 2.302ms
T31F0 000:287.001 JLINK_IsHalted()
T31F0 000:287.253 - 0.258ms returns FALSE
T31F0 000:287.266 JLINK_HasError()
T31F0 000:290.014 JLINK_IsHalted()
T31F0 000:290.336 - 0.327ms returns FALSE
T31F0 000:290.348 JLINK_HasError()
T31F0 000:292.024 JLINK_IsHalted()
T31F0 000:294.152   CPU_ReadMem(2 bytes @ 0x20000000)
T31F0 000:294.391 - 2.374ms returns TRUE
T31F0 000:294.407 JLINK_ReadReg(R15 (PC))
T31F0 000:294.422 - 0.022ms returns 0x20000000
T31F0 000:294.437 JLINK_ClrBPEx(BPHandle = 0x00000007)
T31F0 000:294.451 - 0.020ms returns 0x00
T31F0 000:294.467 JLINK_ReadReg(R0)
T31F0 000:294.483 - 0.022ms returns 0x00000000
T31F0 000:294.873 JLINK_HasError()
T31F0 000:294.891 JLINK_WriteReg(R0, 0x00000600)
T31F0 000:294.906 - 0.021ms returns 0
T31F0 000:294.920 JLINK_WriteReg(R1, 0x00000200)
T31F0 000:294.934 - 0.020ms returns 0
T31F0 000:294.948 JLINK_WriteReg(R2, 0x000000FF)
T31F0 000:294.962 - 0.020ms returns 0
T31F0 000:294.975 JLINK_WriteReg(R3, 0x00000000)
T31F0 000:294.988 - 0.019ms returns 0
T31F0 000:295.001 JLINK_WriteReg(R4, 0x00000000)
T31F0 000:295.014 - 0.018ms returns 0
T31F0 000:295.027 JLINK_WriteReg(R5, 0x00000000)
T31F0 000:295.039 - 0.018ms returns 0
T31F0 000:295.052 JLINK_WriteReg(R6, 0x00000000)
T31F0 000:295.065 - 0.019ms returns 0
T31F0 000:295.078 JLINK_WriteReg(R7, 0x00000000)
T31F0 000:295.091 - 0.018ms returns 0
T31F0 000:295.104 JLINK_WriteReg(R8, 0x00000000)
T31F0 000:295.117 - 0.019ms returns 0
T31F0 000:295.130 JLINK_WriteReg(R9, 0x2000024C)
T31F0 000:295.143 - 0.019ms returns 0
T31F0 000:295.156 JLINK_WriteReg(R10, 0x00000000)
T31F0 000:295.168 - 0.018ms returns 0
T31F0 000:295.181 JLINK_WriteReg(R11, 0x00000000)
T31F0 000:295.194 - 0.018ms returns 0
T31F0 000:295.207 JLINK_WriteReg(R12, 0x00000000)
T31F0 000:295.219 - 0.018ms returns 0
T31F0 000:295.232 JLINK_WriteReg(R13 (SP), 0x20001000)
T31F0 000:295.245 - 0.019ms returns 0
T31F0 000:295.258 JLINK_WriteReg(R14, 0x20000001)
T31F0 000:295.271 - 0.018ms returns 0
T31F0 000:295.284 JLINK_WriteReg(R15 (PC), 0x20000020)
T31F0 000:295.297 - 0.019ms returns 0
T31F0 000:295.310 JLINK_WriteReg(XPSR, 0x01000000)
T31F0 000:295.322 - 0.018ms returns 0
T31F0 000:295.335 JLINK_WriteReg(MSP, 0x20001000)
T31F0 000:295.348 - 0.018ms returns 0
T31F0 000:295.361 JLINK_WriteReg(PSP, 0x20001000)
T31F0 000:295.373 - 0.018ms returns 0
T31F0 000:295.386 JLINK_WriteReg(CFBP, 0x00000000)
T31F0 000:295.399 - 0.018ms returns 0
T31F0 000:295.412 JLINK_SetBPEx(Addr = 0x20000000, Type = 0xFFFFFFF2)
T31F0 000:295.425 - 0.019ms returns 0x00000008
T31F0 000:295.438 JLINK_Go()
T31F0 000:295.455   CPU_ReadMem(4 bytes @ 0xE0001000)
T31F0 000:297.939 - 2.508ms
T31F0 000:297.955 JLINK_IsHalted()
T31F0 000:300.109   CPU_ReadMem(2 bytes @ 0x20000000)
T31F0 000:300.374 - 2.430ms returns TRUE
T31F0 000:300.394 JLINK_ReadReg(R15 (PC))
T31F0 000:300.408 - 0.019ms returns 0x20000000
T31F0 000:300.420 JLINK_ClrBPEx(BPHandle = 0x00000008)
T31F0 000:300.432 - 0.017ms returns 0x00
T31F0 000:300.445 JLINK_ReadReg(R0)
T31F0 000:300.456 - 0.017ms returns 0x00000001
T31F0 000:300.469 JLINK_HasError()
T31F0 000:300.481 JLINK_WriteReg(R0, 0x00000600)
T31F0 000:300.493 - 0.018ms returns 0
T31F0 000:300.506 JLINK_WriteReg(R1, 0x00000200)
T31F0 000:300.519 - 0.018ms returns 0
T31F0 000:300.530 JLINK_WriteReg(R2, 0x000000FF)
T31F0 000:300.542 - 0.017ms returns 0
T31F0 000:300.554 JLINK_WriteReg(R3, 0x00000000)
T31F0 000:300.566 - 0.017ms returns 0
T31F0 000:300.578 JLINK_WriteReg(R4, 0x00000000)
T31F0 000:300.684 - 0.111ms returns 0
T31F0 000:300.696 JLINK_WriteReg(R5, 0x00000000)
T31F0 000:300.708 - 0.017ms returns 0
T31F0 000:300.720 JLINK_WriteReg(R6, 0x00000000)
T31F0 000:300.731 - 0.017ms returns 0
T31F0 000:300.743 JLINK_WriteReg(R7, 0x00000000)
T31F0 000:300.754 - 0.017ms returns 0
T31F0 000:300.766 JLINK_WriteReg(R8, 0x00000000)
T31F0 000:300.778 - 0.016ms returns 0
T31F0 000:300.789 JLINK_WriteReg(R9, 0x2000024C)
T31F0 000:300.801 - 0.017ms returns 0
T31F0 000:300.813 JLINK_WriteReg(R10, 0x00000000)
T31F0 000:300.824 - 0.018ms returns 0
T31F0 000:300.838 JLINK_WriteReg(R11, 0x00000000)
T31F0 000:300.849 - 0.018ms returns 0
T31F0 000:300.861 JLINK_WriteReg(R12, 0x00000000)
T31F0 000:300.872 - 0.015ms returns 0
T31F0 000:300.883 JLINK_WriteReg(R13 (SP), 0x20001000)
T31F0 000:300.894 - 0.016ms returns 0
T31F0 000:300.906 JLINK_WriteReg(R14, 0x20000001)
T31F0 000:300.918 - 0.017ms returns 0
T31F0 000:300.930 JLINK_WriteReg(R15 (PC), 0x20000074)
T31F0 000:300.942 - 0.017ms returns 0
T31F0 000:300.954 JLINK_WriteReg(XPSR, 0x01000000)
T31F0 000:300.966 - 0.055ms returns 0
T31F0 000:301.017 JLINK_WriteReg(MSP, 0x20001000)
T31F0 000:301.029 - 0.017ms returns 0
T31F0 000:301.040 JLINK_WriteReg(PSP, 0x20001000)
T31F0 000:301.051 - 0.017ms returns 0
T31F0 000:301.063 JLINK_WriteReg(CFBP, 0x00000000)
T31F0 000:301.075 - 0.017ms returns 0
T31F0 000:301.087 JLINK_SetBPEx(Addr = 0x20000000, Type = 0xFFFFFFF2)
T31F0 000:301.100 - 0.018ms returns 0x00000009
T31F0 000:301.112 JLINK_Go()
T31F0 000:301.128   CPU_ReadMem(4 bytes @ 0xE0001000)
T31F0 000:303.323 - 2.217ms
T31F0 000:303.337 JLINK_IsHalted()
T31F0 000:303.585 - 0.254ms returns FALSE
T31F0 000:303.597 JLINK_HasError()
T31F0 000:306.519 JLINK_IsHalted()
T31F0 000:306.863 - 0.349ms returns FALSE
T31F0 000:306.877 JLINK_HasError()
T31F0 000:308.515 JLINK_IsHalted()
T31F0 000:310.542   CPU_ReadMem(2 bytes @ 0x20000000)
T31F0 000:310.863 - 2.355ms returns TRUE
T31F0 000:310.880 JLINK_ReadReg(R15 (PC))
T31F0 000:310.894 - 0.020ms returns 0x20000000
T31F0 000:310.908 JLINK_ClrBPEx(BPHandle = 0x00000009)
T31F0 000:310.922 - 0.019ms returns 0x00
T31F0 000:310.937 JLINK_ReadReg(R0)
T31F0 000:310.950 - 0.019ms returns 0x00000000
T31F0 000:311.310 JLINK_HasError()
T31F0 000:311.327 JLINK_WriteReg(R0, 0x00000800)
T31F0 000:311.342 - 0.021ms returns 0
T31F0 000:311.356 JLINK_WriteReg(R1, 0x00000200)
T31F0 000:311.369 - 0.019ms returns 0
T31F0 000:311.382 JLINK_WriteReg(R2, 0x000000FF)
T31F0 000:311.396 - 0.019ms returns 0
T31F0 000:311.409 JLINK_WriteReg(R3, 0x00000000)
T31F0 000:311.422 - 0.019ms returns 0
T31F0 000:311.435 JLINK_WriteReg(R4, 0x00000000)
T31F0 000:311.448 - 0.019ms returns 0
T31F0 000:311.461 JLINK_WriteReg(R5, 0x00000000)
T31F0 000:311.474 - 0.019ms returns 0
T31F0 000:311.488 JLINK_WriteReg(R6, 0x00000000)
T31F0 000:311.501 - 0.019ms returns 0
T31F0 000:311.514 JLINK_WriteReg(R7, 0x00000000)
T31F0 000:311.528 - 0.020ms returns 0
T31F0 000:311.541 JLINK_WriteReg(R8, 0x00000000)
T31F0 000:311.553 - 0.017ms returns 0
T31F0 000:311.565 JLINK_WriteReg(R9, 0x2000024C)
T31F0 000:311.577 - 0.017ms returns 0
T31F0 000:311.589 JLINK_WriteReg(R10, 0x00000000)
T31F0 000:311.601 - 0.017ms returns 0
T31F0 000:311.613 JLINK_WriteReg(R11, 0x00000000)
T31F0 000:311.625 - 0.017ms returns 0
T31F0 000:311.637 JLINK_WriteReg(R12, 0x00000000)
T31F0 000:311.649 - 0.017ms returns 0
T31F0 000:311.662 JLINK_WriteReg(R13 (SP), 0x20001000)
T31F0 000:311.674 - 0.018ms returns 0
T31F0 000:311.686 JLINK_WriteReg(R14, 0x20000001)
T31F0 000:311.698 - 0.017ms returns 0
T31F0 000:311.711 JLINK_WriteReg(R15 (PC), 0x20000020)
T31F0 000:311.723 - 0.017ms returns 0
T31F0 000:311.735 JLINK_WriteReg(XPSR, 0x01000000)
T31F0 000:311.746 - 0.017ms returns 0
T31F0 000:311.759 JLINK_WriteReg(MSP, 0x20001000)
T31F0 000:311.771 - 0.017ms returns 0
T31F0 000:311.783 JLINK_WriteReg(PSP, 0x20001000)
T31F0 000:311.795 - 0.017ms returns 0
T31F0 000:311.807 JLINK_WriteReg(CFBP, 0x00000000)
T31F0 000:311.819 - 0.017ms returns 0
T31F0 000:311.832 JLINK_SetBPEx(Addr = 0x20000000, Type = 0xFFFFFFF2)
T31F0 000:311.844 - 0.017ms returns 0x0000000A
T31F0 000:311.855 JLINK_Go()
T31F0 000:311.870   CPU_ReadMem(4 bytes @ 0xE0001000)
T31F0 000:314.028 - 2.180ms
T31F0 000:314.043 JLINK_IsHalted()
T31F0 000:315.945   CPU_ReadMem(2 bytes @ 0x20000000)
T31F0 000:316.203 - 2.166ms returns TRUE
T31F0 000:316.218 JLINK_ReadReg(R15 (PC))
T31F0 000:316.232 - 0.020ms returns 0x20000000
T31F0 000:316.245 JLINK_ClrBPEx(BPHandle = 0x0000000A)
T31F0 000:316.258 - 0.019ms returns 0x00
T31F0 000:316.271 JLINK_ReadReg(R0)
T31F0 000:316.283 - 0.018ms returns 0x00000001
T31F0 000:316.296 JLINK_HasError()
T31F0 000:316.309 JLINK_WriteReg(R0, 0x00000800)
T31F0 000:316.322 - 0.018ms returns 0
T31F0 000:316.335 JLINK_WriteReg(R1, 0x00000200)
T31F0 000:316.347 - 0.018ms returns 0
T31F0 000:316.360 JLINK_WriteReg(R2, 0x000000FF)
T31F0 000:316.372 - 0.018ms returns 0
T31F0 000:316.385 JLINK_WriteReg(R3, 0x00000000)
T31F0 000:316.397 - 0.018ms returns 0
T31F0 000:316.410 JLINK_WriteReg(R4, 0x00000000)
T31F0 000:316.455 - 0.052ms returns 0
T31F0 000:316.469 JLINK_WriteReg(R5, 0x00000000)
T31F0 000:316.482 - 0.018ms returns 0
T31F0 000:316.495 JLINK_WriteReg(R6, 0x00000000)
T31F0 000:316.507 - 0.018ms returns 0
T31F0 000:316.520 JLINK_WriteReg(R7, 0x00000000)
T31F0 000:316.532 - 0.018ms returns 0
T31F0 000:316.545 JLINK_WriteReg(R8, 0x00000000)
T31F0 000:316.557 - 0.018ms returns 0
T31F0 000:316.571 JLINK_WriteReg(R9, 0x2000024C)
T31F0 000:316.583 - 0.017ms returns 0
T31F0 000:316.595 JLINK_WriteReg(R10, 0x00000000)
T31F0 000:316.607 - 0.017ms returns 0
T31F0 000:316.620 JLINK_WriteReg(R11, 0x00000000)
T31F0 000:316.631 - 0.017ms returns 0
T31F0 000:316.644 JLINK_WriteReg(R12, 0x00000000)
T31F0 000:316.656 - 0.017ms returns 0
T31F0 000:316.668 JLINK_WriteReg(R13 (SP), 0x20001000)
T31F0 000:316.680 - 0.018ms returns 0
T31F0 000:316.692 JLINK_WriteReg(R14, 0x20000001)
T31F0 000:316.704 - 0.017ms returns 0
T31F0 000:316.717 JLINK_WriteReg(R15 (PC), 0x20000074)
T31F0 000:316.729 - 0.017ms returns 0
T31F0 000:316.741 JLINK_WriteReg(XPSR, 0x01000000)
T31F0 000:316.753 - 0.017ms returns 0
T31F0 000:316.765 JLINK_WriteReg(MSP, 0x20001000)
T31F0 000:316.777 - 0.017ms returns 0
T31F0 000:316.790 JLINK_WriteReg(PSP, 0x20001000)
T31F0 000:316.802 - 0.017ms returns 0
T31F0 000:316.814 JLINK_WriteReg(CFBP, 0x00000000)
T31F0 000:316.826 - 0.018ms returns 0
T31F0 000:316.839 JLINK_SetBPEx(Addr = 0x20000000, Type = 0xFFFFFFF2)
T31F0 000:316.852 - 0.018ms returns 0x0000000B
T31F0 000:316.864 JLINK_Go()
T31F0 000:316.878   CPU_ReadMem(4 bytes @ 0xE0001000)
T31F0 000:319.127 - 2.273ms
T31F0 000:319.145 JLINK_IsHalted()
T31F0 000:319.400 - 0.261ms returns FALSE
T31F0 000:319.414 JLINK_HasError()
T31F0 000:321.510 JLINK_IsHalted()
T31F0 000:321.859 - 0.356ms returns FALSE
T31F0 000:321.874 JLINK_HasError()
T31F0 000:323.508 JLINK_IsHalted()
T31F0 000:325.676   CPU_ReadMem(2 bytes @ 0x20000000)
T31F0 000:325.967 - 2.476ms returns TRUE
T31F0 000:325.997 JLINK_ReadReg(R15 (PC))
T31F0 000:326.018 - 0.028ms returns 0x20000000
T31F0 000:326.038 JLINK_ClrBPEx(BPHandle = 0x0000000B)
T31F0 000:326.071 - 0.048ms returns 0x00
T31F0 000:326.105 JLINK_ReadReg(R0)
T31F0 000:326.137 - 0.047ms returns 0x00000000
T31F0 000:326.800 JLINK_HasError()
T31F0 000:326.823 JLINK_WriteReg(R0, 0x00000A00)
T31F0 000:326.844 - 0.030ms returns 0
T31F0 000:326.865 JLINK_WriteReg(R1, 0x00000200)
T31F0 000:326.883 - 0.026ms returns 0
T31F0 000:326.901 JLINK_WriteReg(R2, 0x000000FF)
T31F0 000:326.920 - 0.027ms returns 0
T31F0 000:326.938 JLINK_WriteReg(R3, 0x00000000)
T31F0 000:326.957 - 0.027ms returns 0
T31F0 000:326.976 JLINK_WriteReg(R4, 0x00000000)
T31F0 000:326.993 - 0.026ms returns 0
T31F0 000:327.012 JLINK_WriteReg(R5, 0x00000000)
T31F0 000:327.030 - 0.026ms returns 0
T31F0 000:327.049 JLINK_WriteReg(R6, 0x00000000)
T31F0 000:327.066 - 0.026ms returns 0
T31F0 000:327.085 JLINK_WriteReg(R7, 0x00000000)
T31F0 000:327.103 - 0.026ms returns 0
T31F0 000:327.122 JLINK_WriteReg(R8, 0x00000000)
T31F0 000:327.140 - 0.026ms returns 0
T31F0 000:327.158 JLINK_WriteReg(R9, 0x2000024C)
T31F0 000:327.175 - 0.026ms returns 0
T31F0 000:327.194 JLINK_WriteReg(R10, 0x00000000)
T31F0 000:327.211 - 0.026ms returns 0
T31F0 000:327.230 JLINK_WriteReg(R11, 0x00000000)
T31F0 000:327.247 - 0.026ms returns 0
T31F0 000:327.266 JLINK_WriteReg(R12, 0x00000000)
T31F0 000:327.283 - 0.026ms returns 0
T31F0 000:327.301 JLINK_WriteReg(R13 (SP), 0x20001000)
T31F0 000:327.320 - 0.026ms returns 0
T31F0 000:327.338 JLINK_WriteReg(R14, 0x20000001)
T31F0 000:327.356 - 0.026ms returns 0
T31F0 000:327.374 JLINK_WriteReg(R15 (PC), 0x20000020)
T31F0 000:327.392 - 0.026ms returns 0
T31F0 000:327.410 JLINK_WriteReg(XPSR, 0x01000000)
T31F0 000:327.427 - 0.026ms returns 0
T31F0 000:327.446 JLINK_WriteReg(MSP, 0x20001000)
T31F0 000:327.463 - 0.025ms returns 0
T31F0 000:327.487 JLINK_WriteReg(PSP, 0x20001000)
T31F0 000:327.505 - 0.026ms returns 0
T31F0 000:327.523 JLINK_WriteReg(CFBP, 0x00000000)
T31F0 000:327.541 - 0.026ms returns 0
T31F0 000:327.561 JLINK_SetBPEx(Addr = 0x20000000, Type = 0xFFFFFFF2)
T31F0 000:327.583 - 0.030ms returns 0x0000000C
T31F0 000:327.602 JLINK_Go()
T31F0 000:327.627   CPU_ReadMem(4 bytes @ 0xE0001000)
T31F0 000:329.900 - 2.314ms
T31F0 000:329.930 JLINK_IsHalted()
T31F0 000:331.890   CPU_ReadMem(2 bytes @ 0x20000000)
T31F0 000:332.198 - 2.279ms returns TRUE
T31F0 000:332.224 JLINK_ReadReg(R15 (PC))
T31F0 000:332.248 - 0.035ms returns 0x20000000
T31F0 000:332.272 JLINK_ClrBPEx(BPHandle = 0x0000000C)
T31F0 000:332.294 - 0.032ms returns 0x00
T31F0 000:332.316 JLINK_ReadReg(R0)
T31F0 000:332.338 - 0.032ms returns 0x00000001
T31F0 000:332.361 JLINK_HasError()
T31F0 000:332.384 JLINK_WriteReg(R0, 0x00000A00)
T31F0 000:332.407 - 0.033ms returns 0
T31F0 000:332.430 JLINK_WriteReg(R1, 0x00000200)
T31F0 000:332.452 - 0.032ms returns 0
T31F0 000:332.474 JLINK_WriteReg(R2, 0x000000FF)
T31F0 000:332.496 - 0.033ms returns 0
T31F0 000:332.519 JLINK_WriteReg(R3, 0x00000000)
T31F0 000:332.559 - 0.054ms returns 0
T31F0 000:332.588 JLINK_WriteReg(R4, 0x00000000)
T31F0 000:332.611 - 0.033ms returns 0
T31F0 000:332.634 JLINK_WriteReg(R5, 0x00000000)
T31F0 000:332.656 - 0.032ms returns 0
T31F0 000:332.679 JLINK_WriteReg(R6, 0x00000000)
T31F0 000:332.701 - 0.032ms returns 0
T31F0 000:332.723 JLINK_WriteReg(R7, 0x00000000)
T31F0 000:332.746 - 0.032ms returns 0
T31F0 000:332.767 JLINK_WriteReg(R8, 0x00000000)
T31F0 000:332.788 - 0.030ms returns 0
T31F0 000:332.809 JLINK_WriteReg(R9, 0x2000024C)
T31F0 000:332.830 - 0.030ms returns 0
T31F0 000:332.851 JLINK_WriteReg(R10, 0x00000000)
T31F0 000:332.872 - 0.030ms returns 0
T31F0 000:332.893 JLINK_WriteReg(R11, 0x00000000)
T31F0 000:332.914 - 0.031ms returns 0
T31F0 000:332.936 JLINK_WriteReg(R12, 0x00000000)
T31F0 000:332.959 - 0.033ms returns 0
T31F0 000:332.982 JLINK_WriteReg(R13 (SP), 0x20001000)
T31F0 000:333.003 - 0.031ms returns 0
T31F0 000:333.024 JLINK_WriteReg(R14, 0x20000001)
T31F0 000:333.045 - 0.030ms returns 0
T31F0 000:333.067 JLINK_WriteReg(R15 (PC), 0x20000074)
T31F0 000:333.087 - 0.029ms returns 0
T31F0 000:333.107 JLINK_WriteReg(XPSR, 0x01000000)
T31F0 000:333.127 - 0.029ms returns 0
T31F0 000:333.148 JLINK_WriteReg(MSP, 0x20001000)
T31F0 000:333.167 - 0.029ms returns 0
T31F0 000:333.188 JLINK_WriteReg(PSP, 0x20001000)
T31F0 000:333.208 - 0.029ms returns 0
T31F0 000:333.228 JLINK_WriteReg(CFBP, 0x00000000)
T31F0 000:333.248 - 0.029ms returns 0
T31F0 000:333.269 JLINK_SetBPEx(Addr = 0x20000000, Type = 0xFFFFFFF2)
T31F0 000:333.290 - 0.031ms returns 0x0000000D
T31F0 000:333.311 JLINK_Go()
T31F0 000:333.337   CPU_ReadMem(4 bytes @ 0xE0001000)
T31F0 000:335.660 - 2.366ms
T31F0 000:335.692 JLINK_IsHalted()
T31F0 000:335.966 - 0.298ms returns FALSE
T31F0 000:336.007 JLINK_HasError()
T31F0 000:338.512 JLINK_IsHalted()
T31F0 000:338.866 - 0.365ms returns FALSE
T31F0 000:338.889 JLINK_HasError()
T31F0 000:340.492 JLINK_IsHalted()
T31F0 000:342.422   CPU_ReadMem(2 bytes @ 0x20000000)
T31F0 000:342.719 - 2.241ms returns TRUE
T31F0 000:342.749 JLINK_ReadReg(R15 (PC))
T31F0 000:342.776 - 0.037ms returns 0x20000000
T31F0 000:342.799 JLINK_ClrBPEx(BPHandle = 0x0000000D)
T31F0 000:342.820 - 0.031ms returns 0x00
T31F0 000:342.841 JLINK_ReadReg(R0)
T31F0 000:342.862 - 0.030ms returns 0x00000000
T31F0 000:343.438 JLINK_HasError()
T31F0 000:343.467 JLINK_WriteReg(R0, 0x00000C00)
T31F0 000:343.490 - 0.033ms returns 0
T31F0 000:343.511 JLINK_WriteReg(R1, 0x00000200)
T31F0 000:343.532 - 0.030ms returns 0
T31F0 000:343.553 JLINK_WriteReg(R2, 0x000000FF)
T31F0 000:343.573 - 0.029ms returns 0
T31F0 000:343.593 JLINK_WriteReg(R3, 0x00000000)
T31F0 000:343.613 - 0.029ms returns 0
T31F0 000:343.634 JLINK_WriteReg(R4, 0x00000000)
T31F0 000:343.653 - 0.029ms returns 0
T31F0 000:343.674 JLINK_WriteReg(R5, 0x00000000)
T31F0 000:343.694 - 0.030ms returns 0
T31F0 000:343.715 JLINK_WriteReg(R6, 0x00000000)
T31F0 000:343.736 - 0.031ms returns 0
T31F0 000:343.758 JLINK_WriteReg(R7, 0x00000000)
T31F0 000:343.778 - 0.030ms returns 0
T31F0 000:343.802 JLINK_WriteReg(R8, 0x00000000)
T31F0 000:343.825 - 0.033ms returns 0
T31F0 000:343.847 JLINK_WriteReg(R9, 0x2000024C)
T31F0 000:343.868 - 0.030ms returns 0
T31F0 000:343.889 JLINK_WriteReg(R10, 0x00000000)
T31F0 000:343.910 - 0.030ms returns 0
T31F0 000:343.931 JLINK_WriteReg(R11, 0x00000000)
T31F0 000:343.952 - 0.030ms returns 0
T31F0 000:343.973 JLINK_WriteReg(R12, 0x00000000)
T31F0 000:343.994 - 0.030ms returns 0
T31F0 000:344.015 JLINK_WriteReg(R13 (SP), 0x20001000)
T31F0 000:344.037 - 0.032ms returns 0
T31F0 000:344.059 JLINK_WriteReg(R14, 0x20000001)
T31F0 000:344.080 - 0.031ms returns 0
T31F0 000:344.101 JLINK_WriteReg(R15 (PC), 0x20000020)
T31F0 000:344.123 - 0.032ms returns 0
T31F0 000:344.145 JLINK_WriteReg(XPSR, 0x01000000)
T31F0 000:344.166 - 0.031ms returns 0
T31F0 000:344.187 JLINK_WriteReg(MSP, 0x20001000)
T31F0 000:344.208 - 0.031ms returns 0
T31F0 000:344.230 JLINK_WriteReg(PSP, 0x20001000)
T31F0 000:344.251 - 0.031ms returns 0
T31F0 000:344.272 JLINK_WriteReg(CFBP, 0x00000000)
T31F0 000:344.292 - 0.031ms returns 0
T31F0 000:344.315 JLINK_SetBPEx(Addr = 0x20000000, Type = 0xFFFFFFF2)
T31F0 000:344.337 - 0.032ms returns 0x0000000E
T31F0 000:344.359 JLINK_Go()
T31F0 000:344.388   CPU_ReadMem(4 bytes @ 0xE0001000)
T31F0 000:346.624 - 2.284ms
T31F0 000:346.659 JLINK_IsHalted()
T31F0 000:348.615   CPU_ReadMem(2 bytes @ 0x20000000)
T31F0 000:348.918 - 2.270ms returns TRUE
T31F0 000:348.942 JLINK_ReadReg(R15 (PC))
T31F0 000:348.965 - 0.032ms returns 0x20000000
T31F0 000:348.986 JLINK_ClrBPEx(BPHandle = 0x0000000E)
T31F0 000:349.009 - 0.032ms returns 0x00
T31F0 000:349.029 JLINK_ReadReg(R0)
T31F0 000:349.049 - 0.028ms returns 0x00000001
T31F0 000:349.069 JLINK_HasError()
T31F0 000:349.089 JLINK_WriteReg(R0, 0x00000C00)
T31F0 000:349.109 - 0.106ms returns 0
T31F0 000:349.207 JLINK_WriteReg(R1, 0x00000200)
T31F0 000:349.226 - 0.028ms returns 0
T31F0 000:349.246 JLINK_WriteReg(R2, 0x000000FF)
T31F0 000:349.265 - 0.028ms returns 0
T31F0 000:349.285 JLINK_WriteReg(R3, 0x00000000)
T31F0 000:349.304 - 0.028ms returns 0
T31F0 000:349.324 JLINK_WriteReg(R4, 0x00000000)
T31F0 000:349.343 - 0.028ms returns 0
T31F0 000:349.363 JLINK_WriteReg(R5, 0x00000000)
T31F0 000:349.382 - 0.028ms returns 0
T31F0 000:349.454 JLINK_WriteReg(R6, 0x00000000)
T31F0 000:349.473 - 0.029ms returns 0
T31F0 000:349.493 JLINK_WriteReg(R7, 0x00000000)
T31F0 000:349.512 - 0.028ms returns 0
T31F0 000:349.532 JLINK_WriteReg(R8, 0x00000000)
T31F0 000:349.552 - 0.028ms returns 0
T31F0 000:349.592 JLINK_WriteReg(R9, 0x2000024C)
T31F0 000:349.611 - 0.027ms returns 0
T31F0 000:349.630 JLINK_WriteReg(R10, 0x00000000)
T31F0 000:349.647 - 0.026ms returns 0
T31F0 000:349.698 JLINK_WriteReg(R11, 0x00000000)
T31F0 000:349.725 - 0.036ms returns 0
T31F0 000:349.744 JLINK_WriteReg(R12, 0x00000000)
T31F0 000:349.762 - 0.026ms returns 0
T31F0 000:349.780 JLINK_WriteReg(R13 (SP), 0x20001000)
T31F0 000:349.799 - 0.027ms returns 0
T31F0 000:349.821 JLINK_WriteReg(R14, 0x20000001)
T31F0 000:349.839 - 0.026ms returns 0
T31F0 000:349.857 JLINK_WriteReg(R15 (PC), 0x20000074)
T31F0 000:349.875 - 0.026ms returns 0
T31F0 000:349.893 JLINK_WriteReg(XPSR, 0x01000000)
T31F0 000:349.914 - 0.028ms returns 0
T31F0 000:349.931 JLINK_WriteReg(MSP, 0x20001000)
T31F0 000:349.948 - 0.024ms returns 0
T31F0 000:349.965 JLINK_WriteReg(PSP, 0x20001000)
T31F0 000:349.997 - 0.041ms returns 0
T31F0 000:350.016 JLINK_WriteReg(CFBP, 0x00000000)
T31F0 000:350.033 - 0.024ms returns 0
T31F0 000:350.050 JLINK_SetBPEx(Addr = 0x20000000, Type = 0xFFFFFFF2)
T31F0 000:350.069 - 0.026ms returns 0x0000000F
T31F0 000:350.086 JLINK_Go()
T31F0 000:350.108   CPU_ReadMem(4 bytes @ 0xE0001000)
T31F0 000:352.269 - 2.193ms
T31F0 000:352.291 JLINK_IsHalted()
T31F0 000:352.540 - 0.257ms returns FALSE
T31F0 000:352.560 JLINK_HasError()
T31F0 000:355.850 JLINK_IsHalted()
T31F0 000:356.159 - 0.319ms returns FALSE
T31F0 000:356.181 JLINK_HasError()
T31F0 000:357.833 JLINK_IsHalted()
T31F0 000:359.918   CPU_ReadMem(2 bytes @ 0x20000000)
T31F0 000:360.257 - 2.437ms returns TRUE
T31F0 000:360.285 JLINK_ReadReg(R15 (PC))
T31F0 000:360.311 - 0.038ms returns 0x20000000
T31F0 000:360.337 JLINK_ClrBPEx(BPHandle = 0x0000000F)
T31F0 000:360.361 - 0.035ms returns 0x00
T31F0 000:360.386 JLINK_ReadReg(R0)
T31F0 000:360.410 - 0.035ms returns 0x00000000
T31F0 000:361.042 JLINK_HasError()
T31F0 000:361.072 JLINK_WriteReg(R0, 0x00000E00)
T31F0 000:361.098 - 0.036ms returns 0
T31F0 000:361.121 JLINK_WriteReg(R1, 0x00000200)
T31F0 000:361.144 - 0.033ms returns 0
T31F0 000:361.166 JLINK_WriteReg(R2, 0x000000FF)
T31F0 000:361.188 - 0.032ms returns 0
T31F0 000:361.211 JLINK_WriteReg(R3, 0x00000000)
T31F0 000:361.232 - 0.032ms returns 0
T31F0 000:361.254 JLINK_WriteReg(R4, 0x00000000)
T31F0 000:361.276 - 0.032ms returns 0
T31F0 000:361.299 JLINK_WriteReg(R5, 0x00000000)
T31F0 000:361.320 - 0.032ms returns 0
T31F0 000:361.343 JLINK_WriteReg(R6, 0x00000000)
T31F0 000:361.364 - 0.032ms returns 0
T31F0 000:361.387 JLINK_WriteReg(R7, 0x00000000)
T31F0 000:361.409 - 0.032ms returns 0
T31F0 000:361.432 JLINK_WriteReg(R8, 0x00000000)
T31F0 000:361.453 - 0.033ms returns 0
T31F0 000:361.476 JLINK_WriteReg(R9, 0x2000024C)
T31F0 000:361.496 - 0.029ms returns 0
T31F0 000:361.516 JLINK_WriteReg(R10, 0x00000000)
T31F0 000:361.536 - 0.029ms returns 0
T31F0 000:361.556 JLINK_WriteReg(R11, 0x00000000)
T31F0 000:361.576 - 0.029ms returns 0
T31F0 000:361.596 JLINK_WriteReg(R12, 0x00000000)
T31F0 000:361.616 - 0.029ms returns 0
T31F0 000:361.637 JLINK_WriteReg(R13 (SP), 0x20001000)
T31F0 000:361.657 - 0.030ms returns 0
T31F0 000:361.678 JLINK_WriteReg(R14, 0x20000001)
T31F0 000:361.698 - 0.029ms returns 0
T31F0 000:361.718 JLINK_WriteReg(R15 (PC), 0x20000020)
T31F0 000:361.738 - 0.030ms returns 0
T31F0 000:361.759 JLINK_WriteReg(XPSR, 0x01000000)
T31F0 000:361.779 - 0.028ms returns 0
